
T2558 000:286 SEGGER J-Link V4.96d Log File (0000ms, 0263ms total)
T2558 000:286 DLL Compiled: Jan 29 2015 11:45:37 (0000ms, 0263ms total)
T2558 000:286 Logging started @ 2018-09-16 23:39 (0000ms, 0263ms total)
T2558 000:286 JLINK_SetWarnOutHandler(...) (0000ms, 0263ms total)
T2558 000:286 JLINK_OpenEx(...)
Firmware: J-Link ARM V7 compiled Jun 20 2012 19:45:53
Hardware: V7.00
S/N: 19087980
Feature(s): RDI, FlashDL, FlashBP, JFlash, GDBFull  returns O.K. (0261ms, 0524ms total)
T2558 000:547 JLINK_SetErrorOutHandler(...) (0000ms, 0524ms total)
T2558 000:547 JLINK_ExecCommand("ProjectFile = "D:\GitHub\ucos-stm32F407\source\USER\JLinkSettings.ini"", ...)Device "UNSPECIFIED" selected.  returns 0x00 (0008ms, 0532ms total)
T2558 000:558 JLINK_ExecCommand("Device = STM32F407VGTx", ...)Device "UNSPECIFIED" selected.  returns 0x00 (0004ms, 0536ms total)
T2558 000:562 JLINK_ExecCommand("DisableConnectionTimeout", ...)  returns 0x01 (0000ms, 0536ms total)
T2558 000:562 JLINK_GetHardwareVersion()  returns 0x11170 (0000ms, 0536ms total)
T2558 000:562 JLINK_GetDLLVersion()  returns 49604 (0000ms, 0536ms total)
T2558 000:562 JLINK_GetFirmwareString(...) (0000ms, 0536ms total)
T2558 000:571 JLINK_GetDLLVersion()  returns 49604 (0000ms, 0536ms total)
T2558 000:571 JLINK_GetCompileDateTime() (0000ms, 0536ms total)
T2558 000:575 JLINK_GetFirmwareString(...) (0000ms, 0536ms total)
T2558 000:578 JLINK_GetHardwareVersion()  returns 0x11170 (0000ms, 0536ms total)
T2558 000:593 JLINK_TIF_Select(JLINKARM_TIF_JTAG)  returns 0x00 (0001ms, 0537ms total)
T2558 000:594 JLINK_SetSpeed(5000) (0000ms, 0537ms total)
T2558 000:594 JLINK_GetIdData(...) >0x2F8 JTAG>TotalIRLen = 9, IRPrint = 0x0011 >0x30 JTAG> >0x210 JTAG> >0x70 JTAG> >0x40 JTAG> >0x40 JTAG> >0x40 JTAG> >0x50 JTAG> >0x80 JTAG> >0x40 JTAG> >0x30 JTAG> >0x40 JTAG> >0x40 JTAG> >0x30 JTAG> >0x40 JTAG> >0x50 JTAG>Found Cortex-M4 r0p1, Little endian. >0x1F0 JTAG> >0x1F0 JTAG> >0x1F0 JTAG>FPUnit: 6 code (BP) slots and 2 literal slots >0x1F0 JTAG> >0x1F0 JTAG> >0x1F0 JTAG> >0x1F0 JTAG> >0x1F0 JTAG> >0x1F0 JTAG> >0x1F0 JTAG> >0x1F0 JTAG>TPIU fitted. >0x1F0 JTAG>
ETM fitted. >0x1F0 JTAG> ScanLen=9 NumDevices=2 aId[0]=0x4BA00477 aIrRead[0]=0 aScanLen[0]=0 aScanRead[0]=0 (0675ms, 1212ms total)
T2558 001:269 JLINK_JTAG_GetDeviceID(DeviceIndex = 0)  returns 0x4BA00477 (0000ms, 1212ms total)
T2558 001:269 JLINK_JTAG_GetDeviceInfo(DeviceIndex = 0)  returns 0x00 (0000ms, 1212ms total)
T2558 001:269 JLINK_JTAG_GetDeviceID(DeviceIndex = 1)  returns 0x6413041 (0000ms, 1212ms total)
T2558 001:269 JLINK_JTAG_GetDeviceInfo(DeviceIndex = 1)  returns 0x00 (0000ms, 1212ms total)
T2558 001:269 JLINK_GetDLLVersion()  returns 49604 (0000ms, 1212ms total)
T2558 001:269 JLINK_CORE_GetFound()  returns 0xE0000FF (0000ms, 1212ms total)
T2558 001:269 JLINK_GetDebugInfo(0x100) -- Value=0xE00FF003  returns 0x00 (0000ms, 1212ms total)
T2558 001:271 JLINK_ReadMem (0xE00FF000, 0x0020 Bytes, ...) -- CPU is running >0x398 JTAG> - Data: 03 F0 F0 FF 03 20 F0 FF 03 30 F0 FF 03 10 F0 FF ...  returns 0x00 (0001ms, 1213ms total)
T2558 001:272 JLINK_ReadMem (0xE000EFF0, 0x0010 Bytes, ...) -- CPU is running >0x2A8 JTAG> - Data: 0D 00 00 00 E0 00 00 00 05 00 00 00 B1 00 00 00  returns 0x00 (0001ms, 1214ms total)
T2558 001:273 JLINK_ReadMem (0xE000EFD0, 0x0020 Bytes, ...) -- CPU is running >0x398 JTAG> - Data: 04 00 00 00 00 00 00 00 00 00 00 00 00 00 00 00 ...  returns 0x00 (0001ms, 1215ms total)
T2558 001:274 JLINK_ReadMem (0xE0001FF0, 0x0010 Bytes, ...) -- CPU is running >0x2A8 JTAG> - Data: 0D 00 00 00 E0 00 00 00 05 00 00 00 B1 00 00 00  returns 0x00 (0001ms, 1216ms total)
T2558 001:275 JLINK_ReadMem (0xE0001FD0, 0x0020 Bytes, ...) -- CPU is running >0x398 JTAG> - Data: 04 00 00 00 00 00 00 00 00 00 00 00 00 00 00 00 ...  returns 0x00 (0001ms, 1217ms total)
T2558 001:276 JLINK_ReadMem (0xE0002FF0, 0x0010 Bytes, ...) -- CPU is running >0x2A8 JTAG> - Data: 0D 00 00 00 E0 00 00 00 05 00 00 00 B1 00 00 00  returns 0x00 (0001ms, 1218ms total)
T2558 001:277 JLINK_ReadMem (0xE0002FD0, 0x0020 Bytes, ...) -- CPU is running >0x398 JTAG> - Data: 04 00 00 00 00 00 00 00 00 00 00 00 00 00 00 00 ...  returns 0x00 (0001ms, 1219ms total)
T2558 001:278 JLINK_ReadMem (0xE0000FF0, 0x0010 Bytes, ...) -- CPU is running >0x2A8 JTAG> - Data: 0D 00 00 00 E0 00 00 00 05 00 00 00 B1 00 00 00  returns 0x00 (0001ms, 1220ms total)
T2558 001:279 JLINK_ReadMem (0xE0000FD0, 0x0020 Bytes, ...) -- CPU is running >0x398 JTAG> - Data: 04 00 00 00 00 00 00 00 00 00 00 00 00 00 00 00 ...  returns 0x00 (0001ms, 1221ms total)
T2558 001:280 JLINK_ReadMem (0xE0040FF0, 0x0010 Bytes, ...) -- CPU is running >0x2A8 JTAG> - Data: 0D 00 00 00 90 00 00 00 05 00 00 00 B1 00 00 00  returns 0x00 (0001ms, 1222ms total)
T2558 001:281 JLINK_ReadMem (0xE0040FD0, 0x0020 Bytes, ...) -- CPU is running >0x398 JTAG> - Data: 04 00 00 00 00 00 00 00 00 00 00 00 00 00 00 00 ...  returns 0x00 (0001ms, 1223ms total)
T2558 001:282 JLINK_ReadMem (0xE0041FF0, 0x0010 Bytes, ...) -- CPU is running >0x2A8 JTAG> - Data: 0D 00 00 00 90 00 00 00 05 00 00 00 B1 00 00 00  returns 0x00 (0001ms, 1224ms total)
T2558 001:283 JLINK_ReadMem (0xE0041FD0, 0x0020 Bytes, ...) -- CPU is running >0x398 JTAG> - Data: 04 00 00 00 00 00 00 00 00 00 00 00 00 00 00 00 ...  returns 0x00 (0000ms, 1224ms total)
T2558 001:283 JLINK_ReadMemU32(0xE000EF40, 0x0001 Items, ...) -- CPU is running >0x1F0 JTAG> - Data: 21 00 11 10  returns 0x01 (0001ms, 1225ms total)
T2558 001:284 JLINK_ReadMemU32(0xE000EF44, 0x0001 Items, ...) -- CPU is running >0x1F0 JTAG> - Data: 11 00 00 11  returns 0x01 (0001ms, 1226ms total)
T2558 001:285 JLINK_ReadMemU32(0xE000ED00, 0x0001 Items, ...) -- CPU is running >0x1F0 JTAG> - Data: 41 C2 0F 41  returns 0x01 (0000ms, 1226ms total)
T2558 001:285 JLINK_SetResetType(JLINKARM_RESET_TYPE_NORMAL)  returns JLINKARM_RESET_TYPE_NORMAL (0000ms, 1226ms total)
T2558 001:285 JLINK_Reset() -- CPU is running >0x1F0 JTAG> -- CPU is running >0x1F0 JTAG> -- CPU is running >0x230 JTAG> -- CPU is running >0x1F0 JTAG> -- CPU is running >0x1F0 JTAG> -- CPU is running >0x1F0 JTAG> -- CPU is running >0x1F0 JTAG> -- CPU is running >0x1F0 JTAG> >0x198 JTAG> >0x17A8 JTAG> >0x40 JTAG> >0x40 JTAG> >0x30 JTAG> >0x40 JTAG> >0x50 JTAG> >0x40 JTAG> >0x1F0 JTAG> >0x1F0 JTAG> >0x1F0 JTAG> >0x1F0 JTAG> >0x1F0 JTAG> >0x1F0 JTAG> >0x1F0 JTAG> >0x1F0 JTAG> (0029ms, 1255ms total)
T2558 001:314 JLINK_Halt()  returns 0x00 (0000ms, 1255ms total)
T2558 001:314 JLINK_IsHalted()  returns TRUE (0000ms, 1255ms total)
T2558 001:314 JLINK_ReadMemU32(0xE000EDF0, 0x0001 Items, ...) >0x1F0 JTAG> - Data: 03 00 03 00  returns 0x01 (0000ms, 1255ms total)
T2558 001:314 JLINK_WriteU32(0xE000EDF0, 0xA05F0003) >0x1F0 JTAG>  returns 0x00 (0001ms, 1256ms total)
T2558 001:315 JLINK_WriteU32(0xE000EDFC, 0x01000000) >0x1F0 JTAG>  returns 0x00 (0001ms, 1257ms total)
T2558 001:329 JLINK_GetHWStatus(...)  returns 0x00 (0000ms, 1257ms total)
T2558 001:337 JLINK_GetNumBPUnits(Type = 0xFFFFFF00)  returns 0x06 (0000ms, 1257ms total)
T2558 001:337 JLINK_GetNumBPUnits(Type = 0xF0)  returns 0x2000 (0000ms, 1257ms total)
T2558 001:337 JLINK_GetNumWPUnits()  returns 0x04 (0000ms, 1257ms total)
T2558 001:347 JLINK_GetSpeed()  returns 0x12C0 (0000ms, 1257ms total)
T2558 001:352 JLINK_ReadMemU32(0xE000E004, 0x0001 Items, ...) >0x1F0 JTAG> - Data: 02 00 00 00  returns 0x01 (0001ms, 1258ms total)
T2558 001:353 JLINK_ReadMemU32(0xE000E004, 0x0001 Items, ...) >0x1F0 JTAG> - Data: 02 00 00 00  returns 0x01 (0001ms, 1259ms total)
T2558 001:354 JLINK_WriteMem(0xE0001000, 0x001C Bytes, ...) - Data: 01 00 00 00 00 00 00 00 00 00 00 00 00 00 00 00 ... >0x310 JTAG>  returns 0x1C (0001ms, 1260ms total)
T2558 001:355 JLINK_ReadMem (0xE0001000, 0x001C Bytes, ...) >0x358 JTAG> - Data: 01 00 00 40 00 00 00 00 00 00 00 00 00 00 00 00 ...  returns 0x00 (0001ms, 1261ms total)
T2558 001:356 JLINK_Halt()  returns 0x00 (0000ms, 1261ms total)
T2558 001:356 JLINK_IsHalted()  returns TRUE (0000ms, 1261ms total)
T2558 001:359 JLINK_WriteMem(0x20000000, 0x0180 Bytes, ...) - Data: 00 BE 0A E0 0D 78 2D 06 68 40 08 24 40 00 00 D3 ... >0x13C0 JTAG>  returns 0x180 (0004ms, 1265ms total)
T2558 001:363 JLINK_WriteReg(R0, 0x08000000)  returns 0x00 (0000ms, 1265ms total)
T2558 001:363 JLINK_WriteReg(R1, 0x00B71B00)  returns 0x00 (0000ms, 1265ms total)
T2558 001:363 JLINK_WriteReg(R2, 0x00000001)  returns 0x00 (0000ms, 1265ms total)
T2558 001:363 JLINK_WriteReg(R3, 0x00000000)  returns 0x00 (0000ms, 1265ms total)
T2558 001:363 JLINK_WriteReg(R4, 0x00000000)  returns 0x00 (0000ms, 1265ms total)
T2558 001:363 JLINK_WriteReg(R5, 0x00000000)  returns 0x00 (0000ms, 1265ms total)
T2558 001:363 JLINK_WriteReg(R6, 0x00000000)  returns 0x00 (0000ms, 1265ms total)
T2558 001:363 JLINK_WriteReg(R7, 0x00000000)  returns 0x00 (0000ms, 1265ms total)
T2558 001:364 JLINK_WriteReg(R8, 0x00000000)  returns 0x00 (0000ms, 1266ms total)
T2558 001:364 JLINK_WriteReg(R9, 0x2000017C)  returns 0x00 (0000ms, 1266ms total)
T2558 001:364 JLINK_WriteReg(R10, 0x00000000)  returns 0x00 (0000ms, 1266ms total)
T2558 001:364 JLINK_WriteReg(R11, 0x00000000)  returns 0x00 (0000ms, 1266ms total)
T2558 001:364 JLINK_WriteReg(R12, 0x00000000)  returns 0x00 (0000ms, 1266ms total)
T2558 001:364 JLINK_WriteReg(R13 (SP), 0x20001000)  returns 0x00 (0000ms, 1266ms total)
T2558 001:364 JLINK_WriteReg(R14, 0x20000001)  returns 0x00 (0000ms, 1266ms total)
T2558 001:364 JLINK_WriteReg(R15 (PC), 0x20000054)  returns 0x00 (0000ms, 1266ms total)
T2558 001:364 JLINK_WriteReg(XPSR, 0x01000000)  returns 0x00 (0000ms, 1266ms total)
T2558 001:364 JLINK_WriteReg(MSP, 0x20001000)  returns 0x00 (0000ms, 1266ms total)
T2558 001:364 JLINK_WriteReg(PSP, 0x20001000)  returns 0x00 (0000ms, 1266ms total)
T2558 001:364 JLINK_WriteReg(CFBP, 0x00000000)  returns 0x00 (0000ms, 1266ms total)
T2558 001:364 JLINK_SetBPEx(Addr = 0x20000000, Type = 0xFFFFFFF2) >0x1F0 JTAG> >0x1F0 JTAG> >0x1F0 JTAG> >0x1F0 JTAG> >0x1F0 JTAG>  returns 0x00000001 (0003ms, 1269ms total)
T2558 001:367 JLINK_Go() >0x1F0 JTAG> >0x1F0 JTAG> >0x1F0 JTAG> >0x1F0 JTAG> >0x1F0 JTAG> >0x1F0 JTAG> >0x1F0 JTAG> >0x310 JTAG> >0x218 JTAG> >0x218 JTAG> >0x218 JTAG> >0x218 JTAG> >0x218 JTAG> >0x218 JTAG> >0x218 JTAG> >0x240 JTAG> >0x240 JTAG> (0010ms, 1279ms total)
T2558 001:377 JLINK_IsHalted() >0x198 JTAG> >0x17A8 JTAG> >0x1F0 JTAG>  returns TRUE (0005ms, 1284ms total)
T2558 001:382 JLINK_ReadReg(R15 (PC))  returns 0x20000000 (0000ms, 1279ms total)
T2558 001:382 JLINK_ClrBPEx(BPHandle = 0x00000001)  returns 0x00 (0000ms, 1279ms total)
T2558 001:382 JLINK_ReadReg(R0)  returns 0x00000000 (0000ms, 1279ms total)
T2558 001:382 JLINK_WriteReg(R0, 0x08000000)  returns 0x00 (0000ms, 1279ms total)
T2558 001:382 JLINK_WriteReg(R1, 0x00004000)  returns 0x00 (0000ms, 1279ms total)
T2558 001:382 JLINK_WriteReg(R2, 0x000000FF)  returns 0x00 (0000ms, 1279ms total)
T2558 001:382 JLINK_WriteReg(R3, 0x00000000)  returns 0x00 (0000ms, 1279ms total)
T2558 001:382 JLINK_WriteReg(R4, 0x00000000)  returns 0x00 (0000ms, 1279ms total)
T2558 001:383 JLINK_WriteReg(R5, 0x00000000)  returns 0x00 (0000ms, 1280ms total)
T2558 001:383 JLINK_WriteReg(R6, 0x00000000)  returns 0x00 (0000ms, 1280ms total)
T2558 001:383 JLINK_WriteReg(R7, 0x00000000)  returns 0x00 (0000ms, 1280ms total)
T2558 001:383 JLINK_WriteReg(R8, 0x00000000)  returns 0x00 (0000ms, 1280ms total)
T2558 001:383 JLINK_WriteReg(R9, 0x2000017C)  returns 0x00 (0000ms, 1280ms total)
T2558 001:383 JLINK_WriteReg(R10, 0x00000000)  returns 0x00 (0000ms, 1280ms total)
T2558 001:383 JLINK_WriteReg(R11, 0x00000000)  returns 0x00 (0000ms, 1280ms total)
T2558 001:383 JLINK_WriteReg(R12, 0x00000000)  returns 0x00 (0000ms, 1280ms total)
T2558 001:383 JLINK_WriteReg(R13 (SP), 0x20001000)  returns 0x00 (0000ms, 1280ms total)
T2558 001:383 JLINK_WriteReg(R14, 0x20000001)  returns 0x00 (0000ms, 1280ms total)
T2558 001:383 JLINK_WriteReg(R15 (PC), 0x20000020)  returns 0x00 (0000ms, 1280ms total)
T2558 001:383 JLINK_WriteReg(XPSR, 0x01000000)  returns 0x00 (0000ms, 1280ms total)
T2558 001:383 JLINK_WriteReg(MSP, 0x20001000)  returns 0x00 (0000ms, 1280ms total)
T2558 001:383 JLINK_WriteReg(PSP, 0x20001000)  returns 0x00 (0000ms, 1280ms total)
T2558 001:383 JLINK_WriteReg(CFBP, 0x00000000)  returns 0x00 (0000ms, 1280ms total)
T2558 001:383 JLINK_SetBPEx(Addr = 0x20000000, Type = 0xFFFFFFF2)  returns 0x00000002 (0000ms, 1280ms total)
T2558 001:383 JLINK_Go() >0x310 JTAG> >0x218 JTAG> >0x218 JTAG> >0x218 JTAG> >0x218 JTAG> >0x240 JTAG> >0x240 JTAG> (0004ms, 1284ms total)
T2558 001:387 JLINK_IsHalted() >0x198 JTAG> >0x17A8 JTAG> >0x1F0 JTAG>  returns TRUE (0005ms, 1289ms total)
T2558 001:392 JLINK_ReadReg(R15 (PC))  returns 0x20000000 (0000ms, 1284ms total)
T2558 001:392 JLINK_ClrBPEx(BPHandle = 0x00000002)  returns 0x00 (0000ms, 1284ms total)
T2558 001:392 JLINK_ReadReg(R0)  returns 0x00000001 (0000ms, 1284ms total)
T2558 001:392 JLINK_WriteReg(R0, 0x08000000)  returns 0x00 (0000ms, 1284ms total)
T2558 001:392 JLINK_WriteReg(R1, 0x00004000)  returns 0x00 (0000ms, 1284ms total)
T2558 001:392 JLINK_WriteReg(R2, 0x000000FF)  returns 0x00 (0000ms, 1284ms total)
T2558 001:392 JLINK_WriteReg(R3, 0x00000000)  returns 0x00 (0000ms, 1284ms total)
T2558 001:392 JLINK_WriteReg(R4, 0x00000000)  returns 0x00 (0000ms, 1284ms total)
T2558 001:392 JLINK_WriteReg(R5, 0x00000000)  returns 0x00 (0000ms, 1284ms total)
T2558 001:392 JLINK_WriteReg(R6, 0x00000000)  returns 0x00 (0000ms, 1284ms total)
T2558 001:392 JLINK_WriteReg(R7, 0x00000000)  returns 0x00 (0000ms, 1284ms total)
T2558 001:392 JLINK_WriteReg(R8, 0x00000000)  returns 0x00 (0000ms, 1284ms total)
T2558 001:392 JLINK_WriteReg(R9, 0x2000017C)  returns 0x00 (0000ms, 1284ms total)
T2558 001:392 JLINK_WriteReg(R10, 0x00000000)  returns 0x00 (0000ms, 1284ms total)
T2558 001:392 JLINK_WriteReg(R11, 0x00000000)  returns 0x00 (0000ms, 1284ms total)
T2558 001:392 JLINK_WriteReg(R12, 0x00000000)  returns 0x00 (0000ms, 1284ms total)
T2558 001:392 JLINK_WriteReg(R13 (SP), 0x20001000)  returns 0x00 (0001ms, 1285ms total)
T2558 001:393 JLINK_WriteReg(R14, 0x20000001)  returns 0x00 (0000ms, 1285ms total)
T2558 001:393 JLINK_WriteReg(R15 (PC), 0x200000BC)  returns 0x00 (0000ms, 1285ms total)
T2558 001:393 JLINK_WriteReg(XPSR, 0x01000000)  returns 0x00 (0000ms, 1285ms total)
T2558 001:393 JLINK_WriteReg(MSP, 0x20001000)  returns 0x00 (0000ms, 1285ms total)
T2558 001:393 JLINK_WriteReg(PSP, 0x20001000)  returns 0x00 (0000ms, 1285ms total)
T2558 001:393 JLINK_WriteReg(CFBP, 0x00000000)  returns 0x00 (0000ms, 1285ms total)
T2558 001:393 JLINK_SetBPEx(Addr = 0x20000000, Type = 0xFFFFFFF2)  returns 0x00000003 (0000ms, 1285ms total)
T2558 001:393 JLINK_Go() >0x310 JTAG> >0x218 JTAG> >0x218 JTAG> >0x218 JTAG> >0x240 JTAG> >0x240 JTAG> (0004ms, 1289ms total)
T2558 001:397 JLINK_IsHalted() >0x198 JTAG>  returns FALSE (0000ms, 1289ms total)
T2558 002:011 JLINK_IsHalted() >0x198 JTAG> >0x17A8 JTAG> >0x1F0 JTAG>  returns TRUE (0004ms, 1293ms total)
T2558 002:015 JLINK_ReadReg(R15 (PC))  returns 0x20000000 (0000ms, 1289ms total)
T2558 002:015 JLINK_ClrBPEx(BPHandle = 0x00000003)  returns 0x00 (0000ms, 1289ms total)
T2558 002:015 JLINK_ReadReg(R0)  returns 0x00000000 (0000ms, 1289ms total)
T2558 002:016 JLINK_WriteReg(R0, 0x08004000)  returns 0x00 (0000ms, 1289ms total)
T2558 002:016 JLINK_WriteReg(R1, 0x00004000)  returns 0x00 (0000ms, 1289ms total)
T2558 002:016 JLINK_WriteReg(R2, 0x000000FF)  returns 0x00 (0000ms, 1289ms total)
T2558 002:016 JLINK_WriteReg(R3, 0x00000000)  returns 0x00 (0000ms, 1289ms total)
T2558 002:016 JLINK_WriteReg(R4, 0x00000000)  returns 0x00 (0000ms, 1289ms total)
T2558 002:016 JLINK_WriteReg(R5, 0x00000000)  returns 0x00 (0000ms, 1289ms total)
T2558 002:016 JLINK_WriteReg(R6, 0x00000000)  returns 0x00 (0000ms, 1289ms total)
T2558 002:016 JLINK_WriteReg(R7, 0x00000000)  returns 0x00 (0000ms, 1289ms total)
T2558 002:016 JLINK_WriteReg(R8, 0x00000000)  returns 0x00 (0000ms, 1289ms total)
T2558 002:016 JLINK_WriteReg(R9, 0x2000017C)  returns 0x00 (0000ms, 1289ms total)
T2558 002:016 JLINK_WriteReg(R10, 0x00000000)  returns 0x00 (0000ms, 1289ms total)
T2558 002:016 JLINK_WriteReg(R11, 0x00000000)  returns 0x00 (0000ms, 1289ms total)
T2558 002:016 JLINK_WriteReg(R12, 0x00000000)  returns 0x00 (0000ms, 1289ms total)
T2558 002:016 JLINK_WriteReg(R13 (SP), 0x20001000)  returns 0x00 (0000ms, 1289ms total)
T2558 002:016 JLINK_WriteReg(R14, 0x20000001)  returns 0x00 (0000ms, 1289ms total)
T2558 002:016 JLINK_WriteReg(R15 (PC), 0x20000020)  returns 0x00 (0000ms, 1289ms total)
T2558 002:016 JLINK_WriteReg(XPSR, 0x01000000)  returns 0x00 (0000ms, 1289ms total)
T2558 002:016 JLINK_WriteReg(MSP, 0x20001000)  returns 0x00 (0000ms, 1289ms total)
T2558 002:016 JLINK_WriteReg(PSP, 0x20001000)  returns 0x00 (0000ms, 1289ms total)
T2558 002:016 JLINK_WriteReg(CFBP, 0x00000000)  returns 0x00 (0000ms, 1289ms total)
T2558 002:016 JLINK_SetBPEx(Addr = 0x20000000, Type = 0xFFFFFFF2)  returns 0x00000004 (0000ms, 1289ms total)
T2558 002:016 JLINK_Go() >0x310 JTAG> >0x218 JTAG> >0x218 JTAG> >0x218 JTAG> >0x218 JTAG> >0x218 JTAG> >0x218 JTAG> >0x240 JTAG> >0x240 JTAG> (0006ms, 1295ms total)
T2558 002:022 JLINK_IsHalted() >0x198 JTAG> >0x17A8 JTAG> >0x1F0 JTAG>  returns TRUE (0004ms, 1299ms total)
T2558 002:026 JLINK_ReadReg(R15 (PC))  returns 0x20000000 (0000ms, 1295ms total)
T2558 002:026 JLINK_ClrBPEx(BPHandle = 0x00000004)  returns 0x00 (0001ms, 1296ms total)
T2558 002:027 JLINK_ReadReg(R0)  returns 0x00000001 (0000ms, 1296ms total)
T2558 002:027 JLINK_WriteReg(R0, 0x08004000)  returns 0x00 (0000ms, 1296ms total)
T2558 002:027 JLINK_WriteReg(R1, 0x00004000)  returns 0x00 (0000ms, 1296ms total)
T2558 002:027 JLINK_WriteReg(R2, 0x000000FF)  returns 0x00 (0000ms, 1296ms total)
T2558 002:027 JLINK_WriteReg(R3, 0x00000000)  returns 0x00 (0000ms, 1296ms total)
T2558 002:027 JLINK_WriteReg(R4, 0x00000000)  returns 0x00 (0000ms, 1296ms total)
T2558 002:027 JLINK_WriteReg(R5, 0x00000000)  returns 0x00 (0000ms, 1296ms total)
T2558 002:027 JLINK_WriteReg(R6, 0x00000000)  returns 0x00 (0000ms, 1296ms total)
T2558 002:027 JLINK_WriteReg(R7, 0x00000000)  returns 0x00 (0000ms, 1296ms total)
T2558 002:027 JLINK_WriteReg(R8, 0x00000000)  returns 0x00 (0000ms, 1296ms total)
T2558 002:027 JLINK_WriteReg(R9, 0x2000017C)  returns 0x00 (0000ms, 1296ms total)
T2558 002:027 JLINK_WriteReg(R10, 0x00000000)  returns 0x00 (0000ms, 1296ms total)
T2558 002:027 JLINK_WriteReg(R11, 0x00000000)  returns 0x00 (0000ms, 1296ms total)
T2558 002:027 JLINK_WriteReg(R12, 0x00000000)  returns 0x00 (0000ms, 1296ms total)
T2558 002:027 JLINK_WriteReg(R13 (SP), 0x20001000)  returns 0x00 (0000ms, 1296ms total)
T2558 002:027 JLINK_WriteReg(R14, 0x20000001)  returns 0x00 (0000ms, 1296ms total)
T2558 002:027 JLINK_WriteReg(R15 (PC), 0x200000BC)  returns 0x00 (0000ms, 1296ms total)
T2558 002:027 JLINK_WriteReg(XPSR, 0x01000000)  returns 0x00 (0000ms, 1296ms total)
T2558 002:027 JLINK_WriteReg(MSP, 0x20001000)  returns 0x00 (0000ms, 1296ms total)
T2558 002:027 JLINK_WriteReg(PSP, 0x20001000)  returns 0x00 (0000ms, 1296ms total)
T2558 002:027 JLINK_WriteReg(CFBP, 0x00000000)  returns 0x00 (0001ms, 1297ms total)
T2558 002:028 JLINK_SetBPEx(Addr = 0x20000000, Type = 0xFFFFFFF2)  returns 0x00000005 (0000ms, 1297ms total)
T2558 002:028 JLINK_Go() >0x310 JTAG> >0x218 JTAG> >0x218 JTAG> >0x218 JTAG> >0x240 JTAG> >0x240 JTAG> (0004ms, 1301ms total)
T2558 002:032 JLINK_IsHalted() >0x198 JTAG>  returns FALSE (0000ms, 1301ms total)
T2558 002:149 JLINK_IsHalted() >0x198 JTAG>  returns FALSE (0000ms, 1301ms total)
T2558 002:255 JLINK_IsHalted() >0x198 JTAG>  returns FALSE (0000ms, 1301ms total)
T2558 002:375 JLINK_IsHalted() >0x198 JTAG> >0x17A8 JTAG> >0x1F0 JTAG>  returns TRUE (0004ms, 1305ms total)
T2558 002:379 JLINK_ReadReg(R15 (PC))  returns 0x20000000 (0000ms, 1301ms total)
T2558 002:379 JLINK_ClrBPEx(BPHandle = 0x00000005)  returns 0x00 (0000ms, 1301ms total)
T2558 002:379 JLINK_ReadReg(R0)  returns 0x00000000 (0000ms, 1301ms total)
T2558 002:380 JLINK_WriteReg(R0, 0x08008000)  returns 0x00 (0001ms, 1302ms total)
T2558 002:381 JLINK_WriteReg(R1, 0x00004000)  returns 0x00 (0000ms, 1302ms total)
T2558 002:381 JLINK_WriteReg(R2, 0x000000FF)  returns 0x00 (0000ms, 1302ms total)
T2558 002:381 JLINK_WriteReg(R3, 0x00000000)  returns 0x00 (0000ms, 1302ms total)
T2558 002:381 JLINK_WriteReg(R4, 0x00000000)  returns 0x00 (0000ms, 1302ms total)
T2558 002:381 JLINK_WriteReg(R5, 0x00000000)  returns 0x00 (0000ms, 1302ms total)
T2558 002:381 JLINK_WriteReg(R6, 0x00000000)  returns 0x00 (0000ms, 1302ms total)
T2558 002:381 JLINK_WriteReg(R7, 0x00000000)  returns 0x00 (0000ms, 1302ms total)
T2558 002:381 JLINK_WriteReg(R8, 0x00000000)  returns 0x00 (0000ms, 1302ms total)
T2558 002:381 JLINK_WriteReg(R9, 0x2000017C)  returns 0x00 (0000ms, 1302ms total)
T2558 002:381 JLINK_WriteReg(R10, 0x00000000)  returns 0x00 (0000ms, 1302ms total)
T2558 002:381 JLINK_WriteReg(R11, 0x00000000)  returns 0x00 (0000ms, 1302ms total)
T2558 002:381 JLINK_WriteReg(R12, 0x00000000)  returns 0x00 (0000ms, 1302ms total)
T2558 002:381 JLINK_WriteReg(R13 (SP), 0x20001000)  returns 0x00 (0000ms, 1302ms total)
T2558 002:381 JLINK_WriteReg(R14, 0x20000001)  returns 0x00 (0000ms, 1302ms total)
T2558 002:381 JLINK_WriteReg(R15 (PC), 0x20000020)  returns 0x00 (0000ms, 1302ms total)
T2558 002:381 JLINK_WriteReg(XPSR, 0x01000000)  returns 0x00 (0000ms, 1302ms total)
T2558 002:381 JLINK_WriteReg(MSP, 0x20001000)  returns 0x00 (0000ms, 1302ms total)
T2558 002:381 JLINK_WriteReg(PSP, 0x20001000)  returns 0x00 (0000ms, 1302ms total)
T2558 002:381 JLINK_WriteReg(CFBP, 0x00000000)  returns 0x00 (0001ms, 1303ms total)
T2558 002:382 JLINK_SetBPEx(Addr = 0x20000000, Type = 0xFFFFFFF2)  returns 0x00000006 (0000ms, 1303ms total)
T2558 002:382 JLINK_Go() >0x310 JTAG> >0x218 JTAG> >0x218 JTAG> >0x218 JTAG> >0x218 JTAG> >0x218 JTAG> >0x218 JTAG> >0x240 JTAG> >0x240 JTAG> (0005ms, 1308ms total)
T2558 002:387 JLINK_IsHalted() >0x198 JTAG> >0x17A8 JTAG> >0x1F0 JTAG>  returns TRUE (0005ms, 1313ms total)
T2558 002:392 JLINK_ReadReg(R15 (PC))  returns 0x20000000 (0000ms, 1308ms total)
T2558 002:392 JLINK_ClrBPEx(BPHandle = 0x00000006)  returns 0x00 (0000ms, 1308ms total)
T2558 002:392 JLINK_ReadReg(R0)  returns 0x00000001 (0000ms, 1308ms total)
T2558 002:392 JLINK_WriteReg(R0, 0x08008000)  returns 0x00 (0000ms, 1308ms total)
T2558 002:392 JLINK_WriteReg(R1, 0x00004000)  returns 0x00 (0000ms, 1308ms total)
T2558 002:392 JLINK_WriteReg(R2, 0x000000FF)  returns 0x00 (0000ms, 1308ms total)
T2558 002:392 JLINK_WriteReg(R3, 0x00000000)  returns 0x00 (0000ms, 1308ms total)
T2558 002:392 JLINK_WriteReg(R4, 0x00000000)  returns 0x00 (0000ms, 1308ms total)
T2558 002:392 JLINK_WriteReg(R5, 0x00000000)  returns 0x00 (0000ms, 1308ms total)
T2558 002:392 JLINK_WriteReg(R6, 0x00000000)  returns 0x00 (0000ms, 1308ms total)
T2558 002:392 JLINK_WriteReg(R7, 0x00000000)  returns 0x00 (0000ms, 1308ms total)
T2558 002:392 JLINK_WriteReg(R8, 0x00000000)  returns 0x00 (0000ms, 1308ms total)
T2558 002:392 JLINK_WriteReg(R9, 0x2000017C)  returns 0x00 (0000ms, 1308ms total)
T2558 002:392 JLINK_WriteReg(R10, 0x00000000)  returns 0x00 (0001ms, 1309ms total)
T2558 002:393 JLINK_WriteReg(R11, 0x00000000)  returns 0x00 (0000ms, 1309ms total)
T2558 002:393 JLINK_WriteReg(R12, 0x00000000)  returns 0x00 (0000ms, 1309ms total)
T2558 002:393 JLINK_WriteReg(R13 (SP), 0x20001000)  returns 0x00 (0000ms, 1309ms total)
T2558 002:393 JLINK_WriteReg(R14, 0x20000001)  returns 0x00 (0000ms, 1309ms total)
T2558 002:393 JLINK_WriteReg(R15 (PC), 0x200000BC)  returns 0x00 (0000ms, 1309ms total)
T2558 002:393 JLINK_WriteReg(XPSR, 0x01000000)  returns 0x00 (0000ms, 1309ms total)
T2558 002:393 JLINK_WriteReg(MSP, 0x20001000)  returns 0x00 (0000ms, 1309ms total)
T2558 002:393 JLINK_WriteReg(PSP, 0x20001000)  returns 0x00 (0000ms, 1309ms total)
T2558 002:393 JLINK_WriteReg(CFBP, 0x00000000)  returns 0x00 (0000ms, 1309ms total)
T2558 002:393 JLINK_SetBPEx(Addr = 0x20000000, Type = 0xFFFFFFF2)  returns 0x00000007 (0000ms, 1309ms total)
T2558 002:393 JLINK_Go() >0x310 JTAG> >0x218 JTAG> >0x218 JTAG> >0x218 JTAG> >0x240 JTAG> >0x240 JTAG> (0005ms, 1314ms total)
T2558 002:398 JLINK_IsHalted() >0x198 JTAG>  returns FALSE (0000ms, 1314ms total)
T2558 002:513 JLINK_IsHalted() >0x198 JTAG>  returns FALSE (0000ms, 1314ms total)
T2558 002:553 JLINK_IsHalted() >0x198 JTAG>  returns FALSE (0000ms, 1314ms total)
T2558 002:555 JLINK_IsHalted() >0x198 JTAG>  returns FALSE (0000ms, 1314ms total)
T2558 002:557 JLINK_IsHalted() >0x198 JTAG>  returns FALSE (0000ms, 1314ms total)
T2558 002:559 JLINK_IsHalted() >0x198 JTAG>  returns FALSE (0000ms, 1314ms total)
T2558 002:561 JLINK_IsHalted() >0x198 JTAG>  returns FALSE (0000ms, 1314ms total)
T2558 002:563 JLINK_IsHalted() >0x198 JTAG>  returns FALSE (0000ms, 1314ms total)
T2558 002:565 JLINK_IsHalted() >0x198 JTAG>  returns FALSE (0000ms, 1314ms total)
T2558 002:662 JLINK_IsHalted() >0x198 JTAG>  returns FALSE (0000ms, 1314ms total)
T2558 002:664 JLINK_IsHalted() >0x198 JTAG>  returns FALSE (0000ms, 1314ms total)
T2558 002:666 JLINK_IsHalted() >0x198 JTAG>  returns FALSE (0000ms, 1314ms total)
T2558 002:668 JLINK_IsHalted() >0x198 JTAG>  returns FALSE (0000ms, 1314ms total)
T2558 002:670 JLINK_IsHalted() >0x198 JTAG>  returns FALSE (0000ms, 1314ms total)
T2558 002:672 JLINK_IsHalted() >0x198 JTAG>  returns FALSE (0000ms, 1314ms total)
T2558 002:674 JLINK_IsHalted() >0x198 JTAG>  returns FALSE (0001ms, 1315ms total)
T2558 002:770 JLINK_IsHalted() >0x198 JTAG> >0x17A8 JTAG> >0x1F0 JTAG>  returns TRUE (0004ms, 1318ms total)
T2558 002:774 JLINK_ReadReg(R15 (PC))  returns 0x20000000 (0000ms, 1314ms total)
T2558 002:774 JLINK_ClrBPEx(BPHandle = 0x00000007)  returns 0x00 (0000ms, 1314ms total)
T2558 002:774 JLINK_ReadReg(R0)  returns 0x00000000 (0000ms, 1314ms total)
T2558 002:775 JLINK_WriteReg(R0, 0x0800C000)  returns 0x00 (0000ms, 1314ms total)
T2558 002:775 JLINK_WriteReg(R1, 0x00004000)  returns 0x00 (0000ms, 1314ms total)
T2558 002:775 JLINK_WriteReg(R2, 0x000000FF)  returns 0x00 (0000ms, 1314ms total)
T2558 002:775 JLINK_WriteReg(R3, 0x00000000)  returns 0x00 (0000ms, 1314ms total)
T2558 002:775 JLINK_WriteReg(R4, 0x00000000)  returns 0x00 (0000ms, 1314ms total)
T2558 002:775 JLINK_WriteReg(R5, 0x00000000)  returns 0x00 (0000ms, 1314ms total)
T2558 002:775 JLINK_WriteReg(R6, 0x00000000)  returns 0x00 (0000ms, 1314ms total)
T2558 002:775 JLINK_WriteReg(R7, 0x00000000)  returns 0x00 (0000ms, 1314ms total)
T2558 002:775 JLINK_WriteReg(R8, 0x00000000)  returns 0x00 (0000ms, 1314ms total)
T2558 002:775 JLINK_WriteReg(R9, 0x2000017C)  returns 0x00 (0000ms, 1314ms total)
T2558 002:775 JLINK_WriteReg(R10, 0x00000000)  returns 0x00 (0000ms, 1314ms total)
T2558 002:775 JLINK_WriteReg(R11, 0x00000000)  returns 0x00 (0000ms, 1314ms total)
T2558 002:775 JLINK_WriteReg(R12, 0x00000000)  returns 0x00 (0000ms, 1314ms total)
T2558 002:775 JLINK_WriteReg(R13 (SP), 0x20001000)  returns 0x00 (0000ms, 1314ms total)
T2558 002:775 JLINK_WriteReg(R14, 0x20000001)  returns 0x00 (0000ms, 1314ms total)
T2558 002:775 JLINK_WriteReg(R15 (PC), 0x20000020)  returns 0x00 (0000ms, 1314ms total)
T2558 002:775 JLINK_WriteReg(XPSR, 0x01000000)  returns 0x00 (0000ms, 1314ms total)
T2558 002:775 JLINK_WriteReg(MSP, 0x20001000)  returns 0x00 (0000ms, 1314ms total)
T2558 002:776 JLINK_WriteReg(PSP, 0x20001000)  returns 0x00 (0000ms, 1315ms total)
T2558 002:776 JLINK_WriteReg(CFBP, 0x00000000)  returns 0x00 (0000ms, 1315ms total)
T2558 002:776 JLINK_SetBPEx(Addr = 0x20000000, Type = 0xFFFFFFF2)  returns 0x00000008 (0000ms, 1315ms total)
T2558 002:776 JLINK_Go() >0x310 JTAG> >0x218 JTAG> >0x218 JTAG> >0x218 JTAG> >0x218 JTAG> >0x218 JTAG> >0x218 JTAG> >0x240 JTAG> >0x240 JTAG> (0006ms, 1321ms total)
T2558 002:782 JLINK_IsHalted() >0x198 JTAG> >0x17A8 JTAG> >0x1F0 JTAG>  returns TRUE (0005ms, 1326ms total)
T2558 002:787 JLINK_ReadReg(R15 (PC))  returns 0x20000000 (0000ms, 1321ms total)
T2558 002:787 JLINK_ClrBPEx(BPHandle = 0x00000008)  returns 0x00 (0000ms, 1321ms total)
T2558 002:787 JLINK_ReadReg(R0)  returns 0x00000001 (0000ms, 1321ms total)
T2558 002:787 JLINK_WriteReg(R0, 0x0800C000)  returns 0x00 (0000ms, 1321ms total)
T2558 002:787 JLINK_WriteReg(R1, 0x00004000)  returns 0x00 (0000ms, 1321ms total)
T2558 002:787 JLINK_WriteReg(R2, 0x000000FF)  returns 0x00 (0000ms, 1321ms total)
T2558 002:787 JLINK_WriteReg(R3, 0x00000000)  returns 0x00 (0000ms, 1321ms total)
T2558 002:787 JLINK_WriteReg(R4, 0x00000000)  returns 0x00 (0000ms, 1321ms total)
T2558 002:787 JLINK_WriteReg(R5, 0x00000000)  returns 0x00 (0000ms, 1321ms total)
T2558 002:787 JLINK_WriteReg(R6, 0x00000000)  returns 0x00 (0000ms, 1321ms total)
T2558 002:787 JLINK_WriteReg(R7, 0x00000000)  returns 0x00 (0000ms, 1321ms total)
T2558 002:787 JLINK_WriteReg(R8, 0x00000000)  returns 0x00 (0000ms, 1321ms total)
T2558 002:787 JLINK_WriteReg(R9, 0x2000017C)  returns 0x00 (0000ms, 1321ms total)
T2558 002:787 JLINK_WriteReg(R10, 0x00000000)  returns 0x00 (0000ms, 1321ms total)
T2558 002:787 JLINK_WriteReg(R11, 0x00000000)  returns 0x00 (0000ms, 1321ms total)
T2558 002:787 JLINK_WriteReg(R12, 0x00000000)  returns 0x00 (0000ms, 1321ms total)
T2558 002:787 JLINK_WriteReg(R13 (SP), 0x20001000)  returns 0x00 (0000ms, 1321ms total)
T2558 002:787 JLINK_WriteReg(R14, 0x20000001)  returns 0x00 (0000ms, 1321ms total)
T2558 002:787 JLINK_WriteReg(R15 (PC), 0x200000BC)  returns 0x00 (0000ms, 1321ms total)
T2558 002:787 JLINK_WriteReg(XPSR, 0x01000000)  returns 0x00 (0000ms, 1321ms total)
T2558 002:787 JLINK_WriteReg(MSP, 0x20001000)  returns 0x00 (0000ms, 1321ms total)
T2558 002:787 JLINK_WriteReg(PSP, 0x20001000)  returns 0x00 (0000ms, 1321ms total)
T2558 002:787 JLINK_WriteReg(CFBP, 0x00000000)  returns 0x00 (0000ms, 1321ms total)
T2558 002:787 JLINK_SetBPEx(Addr = 0x20000000, Type = 0xFFFFFFF2)  returns 0x00000009 (0001ms, 1322ms total)
T2558 002:788 JLINK_Go() >0x310 JTAG> >0x218 JTAG> >0x218 JTAG> >0x218 JTAG> >0x240 JTAG> >0x240 JTAG> (0003ms, 1325ms total)
T2558 002:791 JLINK_IsHalted() >0x198 JTAG>  returns FALSE (0001ms, 1326ms total)
T2558 002:876 JLINK_IsHalted() >0x198 JTAG>  returns FALSE (0000ms, 1325ms total)
T2558 002:878 JLINK_IsHalted() >0x198 JTAG>  returns FALSE (0000ms, 1325ms total)
T2558 002:880 JLINK_IsHalted() >0x198 JTAG>  returns FALSE (0000ms, 1325ms total)
T2558 002:882 JLINK_IsHalted() >0x198 JTAG>  returns FALSE (0000ms, 1325ms total)
T2558 002:884 JLINK_IsHalted() >0x198 JTAG>  returns FALSE (0000ms, 1325ms total)
T2558 002:886 JLINK_IsHalted() >0x198 JTAG>  returns FALSE (0000ms, 1325ms total)
T2558 002:888 JLINK_IsHalted() >0x198 JTAG>  returns FALSE (0000ms, 1325ms total)
T2558 002:890 JLINK_IsHalted() >0x198 JTAG>  returns FALSE (0000ms, 1325ms total)
T2558 002:996 JLINK_IsHalted() >0x198 JTAG>  returns FALSE (0000ms, 1325ms total)
T2558 002:998 JLINK_IsHalted() >0x198 JTAG>  returns FALSE (0000ms, 1325ms total)
T2558 003:000 JLINK_IsHalted() >0x198 JTAG>  returns FALSE (0000ms, 1325ms total)
T2558 003:002 JLINK_IsHalted() >0x198 JTAG>  returns FALSE (0000ms, 1325ms total)
T2558 003:095 JLINK_IsHalted() >0x198 JTAG>  returns FALSE (0000ms, 1325ms total)
T2558 003:097 JLINK_IsHalted() >0x198 JTAG>  returns FALSE (0000ms, 1325ms total)
T2558 003:099 JLINK_IsHalted() >0x198 JTAG>  returns FALSE (0000ms, 1325ms total)
T2558 003:102 JLINK_IsHalted() >0x198 JTAG>  returns FALSE (0000ms, 1325ms total)
T2558 003:104 JLINK_IsHalted() >0x198 JTAG>  returns FALSE (0000ms, 1325ms total)
T2558 003:106 JLINK_IsHalted() >0x198 JTAG>  returns FALSE (0000ms, 1325ms total)
T2558 003:108 JLINK_IsHalted() >0x198 JTAG>  returns FALSE (0000ms, 1325ms total)
T2558 003:110 JLINK_IsHalted() >0x198 JTAG>  returns FALSE (0001ms, 1326ms total)
T2558 003:196 JLINK_IsHalted() >0x198 JTAG> >0x17A8 JTAG> >0x1F0 JTAG>  returns TRUE (0004ms, 1329ms total)
T2558 003:200 JLINK_ReadReg(R15 (PC))  returns 0x20000000 (0001ms, 1326ms total)
T2558 003:201 JLINK_ClrBPEx(BPHandle = 0x00000009)  returns 0x00 (0000ms, 1326ms total)
T2558 003:201 JLINK_ReadReg(R0)  returns 0x00000000 (0000ms, 1326ms total)
T2558 003:201 JLINK_WriteReg(R0, 0x08010000)  returns 0x00 (0000ms, 1326ms total)
T2558 003:201 JLINK_WriteReg(R1, 0x00010000)  returns 0x00 (0000ms, 1326ms total)
T2558 003:201 JLINK_WriteReg(R2, 0x000000FF)  returns 0x00 (0000ms, 1326ms total)
T2558 003:201 JLINK_WriteReg(R3, 0x00000000)  returns 0x00 (0000ms, 1326ms total)
T2558 003:201 JLINK_WriteReg(R4, 0x00000000)  returns 0x00 (0000ms, 1326ms total)
T2558 003:201 JLINK_WriteReg(R5, 0x00000000)  returns 0x00 (0000ms, 1326ms total)
T2558 003:201 JLINK_WriteReg(R6, 0x00000000)  returns 0x00 (0000ms, 1326ms total)
T2558 003:201 JLINK_WriteReg(R7, 0x00000000)  returns 0x00 (0000ms, 1326ms total)
T2558 003:201 JLINK_WriteReg(R8, 0x00000000)  returns 0x00 (0000ms, 1326ms total)
T2558 003:201 JLINK_WriteReg(R9, 0x2000017C)  returns 0x00 (0000ms, 1326ms total)
T2558 003:201 JLINK_WriteReg(R10, 0x00000000)  returns 0x00 (0000ms, 1326ms total)
T2558 003:201 JLINK_WriteReg(R11, 0x00000000)  returns 0x00 (0000ms, 1326ms total)
T2558 003:201 JLINK_WriteReg(R12, 0x00000000)  returns 0x00 (0000ms, 1326ms total)
T2558 003:201 JLINK_WriteReg(R13 (SP), 0x20001000)  returns 0x00 (0000ms, 1326ms total)
T2558 003:201 JLINK_WriteReg(R14, 0x20000001)  returns 0x00 (0000ms, 1326ms total)
T2558 003:201 JLINK_WriteReg(R15 (PC), 0x20000020)  returns 0x00 (0001ms, 1327ms total)
T2558 003:202 JLINK_WriteReg(XPSR, 0x01000000)  returns 0x00 (0000ms, 1327ms total)
T2558 003:202 JLINK_WriteReg(MSP, 0x20001000)  returns 0x00 (0000ms, 1327ms total)
T2558 003:202 JLINK_WriteReg(PSP, 0x20001000)  returns 0x00 (0000ms, 1327ms total)
T2558 003:202 JLINK_WriteReg(CFBP, 0x00000000)  returns 0x00 (0000ms, 1327ms total)
T2558 003:202 JLINK_SetBPEx(Addr = 0x20000000, Type = 0xFFFFFFF2)  returns 0x0000000A (0000ms, 1327ms total)
T2558 003:202 JLINK_Go() >0x310 JTAG> >0x218 JTAG> >0x218 JTAG> >0x218 JTAG> >0x218 JTAG> >0x218 JTAG> >0x218 JTAG> >0x240 JTAG> >0x240 JTAG> (0005ms, 1332ms total)
T2558 003:207 JLINK_IsHalted() >0x198 JTAG> >0x17A8 JTAG> >0x1F0 JTAG>  returns TRUE (0004ms, 1336ms total)
T2558 003:211 JLINK_ReadReg(R15 (PC))  returns 0x20000000 (0001ms, 1333ms total)
T2558 003:212 JLINK_ClrBPEx(BPHandle = 0x0000000A)  returns 0x00 (0000ms, 1333ms total)
T2558 003:212 JLINK_ReadReg(R0)  returns 0x00000001 (0000ms, 1333ms total)
T2558 003:212 JLINK_WriteReg(R0, 0x08010000)  returns 0x00 (0000ms, 1333ms total)
T2558 003:212 JLINK_WriteReg(R1, 0x00010000)  returns 0x00 (0000ms, 1333ms total)
T2558 003:212 JLINK_WriteReg(R2, 0x000000FF)  returns 0x00 (0000ms, 1333ms total)
T2558 003:212 JLINK_WriteReg(R3, 0x00000000)  returns 0x00 (0000ms, 1333ms total)
T2558 003:212 JLINK_WriteReg(R4, 0x00000000)  returns 0x00 (0000ms, 1333ms total)
T2558 003:212 JLINK_WriteReg(R5, 0x00000000)  returns 0x00 (0000ms, 1333ms total)
T2558 003:212 JLINK_WriteReg(R6, 0x00000000)  returns 0x00 (0000ms, 1333ms total)
T2558 003:212 JLINK_WriteReg(R7, 0x00000000)  returns 0x00 (0000ms, 1333ms total)
T2558 003:212 JLINK_WriteReg(R8, 0x00000000)  returns 0x00 (0000ms, 1333ms total)
T2558 003:212 JLINK_WriteReg(R9, 0x2000017C)  returns 0x00 (0000ms, 1333ms total)
T2558 003:212 JLINK_WriteReg(R10, 0x00000000)  returns 0x00 (0000ms, 1333ms total)
T2558 003:212 JLINK_WriteReg(R11, 0x00000000)  returns 0x00 (0000ms, 1333ms total)
T2558 003:212 JLINK_WriteReg(R12, 0x00000000)  returns 0x00 (0000ms, 1333ms total)
T2558 003:212 JLINK_WriteReg(R13 (SP), 0x20001000)  returns 0x00 (0000ms, 1333ms total)
T2558 003:212 JLINK_WriteReg(R14, 0x20000001)  returns 0x00 (0000ms, 1333ms total)
T2558 003:212 JLINK_WriteReg(R15 (PC), 0x200000BC)  returns 0x00 (0000ms, 1333ms total)
T2558 003:212 JLINK_WriteReg(XPSR, 0x01000000)  returns 0x00 (0000ms, 1333ms total)
T2558 003:212 JLINK_WriteReg(MSP, 0x20001000)  returns 0x00 (0001ms, 1334ms total)
T2558 003:213 JLINK_WriteReg(PSP, 0x20001000)  returns 0x00 (0000ms, 1334ms total)
T2558 003:213 JLINK_WriteReg(CFBP, 0x00000000)  returns 0x00 (0000ms, 1334ms total)
T2558 003:213 JLINK_SetBPEx(Addr = 0x20000000, Type = 0xFFFFFFF2)  returns 0x0000000B (0000ms, 1334ms total)
T2558 003:213 JLINK_Go() >0x310 JTAG> >0x218 JTAG> >0x218 JTAG> >0x218 JTAG> >0x240 JTAG> >0x240 JTAG> (0004ms, 1338ms total)
T2558 003:217 JLINK_IsHalted() >0x198 JTAG>  returns FALSE (0000ms, 1338ms total)
T2558 003:221 JLINK_IsHalted() >0x198 JTAG>  returns FALSE (0000ms, 1338ms total)
T2558 003:321 JLINK_IsHalted() >0x198 JTAG>  returns FALSE (0000ms, 1338ms total)
T2558 003:323 JLINK_IsHalted() >0x198 JTAG>  returns FALSE (0000ms, 1338ms total)
T2558 003:325 JLINK_IsHalted() >0x198 JTAG>  returns FALSE (0000ms, 1338ms total)
T2558 003:327 JLINK_IsHalted() >0x198 JTAG>  returns FALSE (0000ms, 1338ms total)
T2558 003:329 JLINK_IsHalted() >0x198 JTAG>  returns FALSE (0001ms, 1339ms total)
T2558 003:421 JLINK_IsHalted() >0x198 JTAG>  returns FALSE (0000ms, 1338ms total)
T2558 003:423 JLINK_IsHalted() >0x198 JTAG>  returns FALSE (0000ms, 1338ms total)
T2558 003:425 JLINK_IsHalted() >0x198 JTAG>  returns FALSE (0000ms, 1338ms total)
T2558 003:427 JLINK_IsHalted() >0x198 JTAG>  returns FALSE (0000ms, 1338ms total)
T2558 003:429 JLINK_IsHalted() >0x198 JTAG>  returns FALSE (0001ms, 1339ms total)
T2558 003:432 JLINK_IsHalted() >0x198 JTAG>  returns FALSE (0000ms, 1338ms total)
T2558 003:434 JLINK_IsHalted() >0x198 JTAG>  returns FALSE (0000ms, 1338ms total)
T2558 003:436 JLINK_IsHalted() >0x198 JTAG>  returns FALSE (0000ms, 1338ms total)
T2558 003:438 JLINK_IsHalted() >0x198 JTAG>  returns FALSE (0000ms, 1338ms total)
T2558 003:440 JLINK_IsHalted() >0x198 JTAG>  returns FALSE (0000ms, 1338ms total)
T2558 003:540 JLINK_IsHalted() >0x198 JTAG>  returns FALSE (0000ms, 1338ms total)
T2558 003:542 JLINK_IsHalted() >0x198 JTAG>  returns FALSE (0000ms, 1338ms total)
T2558 003:544 JLINK_IsHalted() >0x198 JTAG>  returns FALSE (0000ms, 1338ms total)
T2558 003:546 JLINK_IsHalted() >0x198 JTAG>  returns FALSE (0000ms, 1338ms total)
T2558 003:548 JLINK_IsHalted() >0x198 JTAG>  returns FALSE (0000ms, 1338ms total)
T2558 003:550 JLINK_IsHalted() >0x198 JTAG>  returns FALSE (0000ms, 1338ms total)
T2558 003:642 JLINK_IsHalted() >0x198 JTAG>  returns FALSE (0000ms, 1338ms total)
T2558 003:644 JLINK_IsHalted() >0x198 JTAG>  returns FALSE (0000ms, 1338ms total)
T2558 003:646 JLINK_IsHalted() >0x198 JTAG>  returns FALSE (0000ms, 1338ms total)
T2558 003:648 JLINK_IsHalted() >0x198 JTAG>  returns FALSE (0000ms, 1338ms total)
T2558 003:650 JLINK_IsHalted() >0x198 JTAG>  returns FALSE (0000ms, 1338ms total)
T2558 003:652 JLINK_IsHalted() >0x198 JTAG>  returns FALSE (0000ms, 1338ms total)
T2558 003:654 JLINK_IsHalted() >0x198 JTAG>  returns FALSE (0000ms, 1338ms total)
T2558 003:656 JLINK_IsHalted() >0x198 JTAG>  returns FALSE (0001ms, 1339ms total)
T2558 003:764 JLINK_IsHalted() >0x198 JTAG>  returns FALSE (0000ms, 1338ms total)
T2558 003:766 JLINK_IsHalted() >0x198 JTAG>  returns FALSE (0000ms, 1338ms total)
T2558 003:768 JLINK_IsHalted() >0x198 JTAG>  returns FALSE (0000ms, 1338ms total)
T2558 003:869 JLINK_IsHalted() >0x198 JTAG>  returns FALSE (0000ms, 1338ms total)
T2558 003:871 JLINK_IsHalted() >0x198 JTAG>  returns FALSE (0000ms, 1338ms total)
T2558 003:873 JLINK_IsHalted() >0x198 JTAG>  returns FALSE (0000ms, 1338ms total)
T2558 003:875 JLINK_IsHalted() >0x198 JTAG>  returns FALSE (0002ms, 1340ms total)
T2558 003:991 JLINK_IsHalted() >0x198 JTAG>  returns FALSE (0000ms, 1338ms total)
T2558 004:086 JLINK_IsHalted() >0x198 JTAG>  returns FALSE (0000ms, 1338ms total)
T2558 004:088 JLINK_IsHalted() >0x198 JTAG>  returns FALSE (0000ms, 1338ms total)
T2558 004:090 JLINK_IsHalted() >0x198 JTAG>  returns FALSE (0000ms, 1338ms total)
T2558 004:092 JLINK_IsHalted() >0x198 JTAG>  returns FALSE (0000ms, 1338ms total)
T2558 004:094 JLINK_IsHalted() >0x198 JTAG>  returns FALSE (0000ms, 1338ms total)
T2558 004:194 JLINK_IsHalted() >0x198 JTAG>  returns FALSE (0000ms, 1338ms total)
T2558 004:196 JLINK_IsHalted() >0x198 JTAG>  returns FALSE (0000ms, 1338ms total)
T2558 004:198 JLINK_IsHalted() >0x198 JTAG>  returns FALSE (0000ms, 1338ms total)
T2558 004:200 JLINK_IsHalted() >0x198 JTAG>  returns FALSE (0000ms, 1338ms total)
T2558 004:202 JLINK_IsHalted() >0x198 JTAG>  returns FALSE (0000ms, 1338ms total)
T2558 004:306 JLINK_IsHalted() >0x198 JTAG> >0x17A8 JTAG> >0x1F0 JTAG>  returns TRUE (0005ms, 1343ms total)
T2558 004:311 JLINK_ReadReg(R15 (PC))  returns 0x20000000 (0000ms, 1338ms total)
T2558 004:311 JLINK_ClrBPEx(BPHandle = 0x0000000B)  returns 0x00 (0000ms, 1338ms total)
T2558 004:311 JLINK_ReadReg(R0)  returns 0x00000000 (0000ms, 1338ms total)
T2558 004:311 JLINK_WriteReg(R0, 0x08020000)  returns 0x00 (0000ms, 1338ms total)
T2558 004:311 JLINK_WriteReg(R1, 0x00020000)  returns 0x00 (0000ms, 1338ms total)
T2558 004:311 JLINK_WriteReg(R2, 0x000000FF)  returns 0x00 (0000ms, 1338ms total)
T2558 004:311 JLINK_WriteReg(R3, 0x00000000)  returns 0x00 (0000ms, 1338ms total)
T2558 004:311 JLINK_WriteReg(R4, 0x00000000)  returns 0x00 (0000ms, 1338ms total)
T2558 004:311 JLINK_WriteReg(R5, 0x00000000)  returns 0x00 (0000ms, 1338ms total)
T2558 004:311 JLINK_WriteReg(R6, 0x00000000)  returns 0x00 (0000ms, 1338ms total)
T2558 004:311 JLINK_WriteReg(R7, 0x00000000)  returns 0x00 (0000ms, 1338ms total)
T2558 004:311 JLINK_WriteReg(R8, 0x00000000)  returns 0x00 (0000ms, 1338ms total)
T2558 004:311 JLINK_WriteReg(R9, 0x2000017C)  returns 0x00 (0001ms, 1339ms total)
T2558 004:312 JLINK_WriteReg(R10, 0x00000000)  returns 0x00 (0000ms, 1339ms total)
T2558 004:312 JLINK_WriteReg(R11, 0x00000000)  returns 0x00 (0000ms, 1339ms total)
T2558 004:312 JLINK_WriteReg(R12, 0x00000000)  returns 0x00 (0000ms, 1339ms total)
T2558 004:312 JLINK_WriteReg(R13 (SP), 0x20001000)  returns 0x00 (0000ms, 1339ms total)
T2558 004:312 JLINK_WriteReg(R14, 0x20000001)  returns 0x00 (0000ms, 1339ms total)
T2558 004:312 JLINK_WriteReg(R15 (PC), 0x20000020)  returns 0x00 (0000ms, 1339ms total)
T2558 004:312 JLINK_WriteReg(XPSR, 0x01000000)  returns 0x00 (0000ms, 1339ms total)
T2558 004:312 JLINK_WriteReg(MSP, 0x20001000)  returns 0x00 (0000ms, 1339ms total)
T2558 004:312 JLINK_WriteReg(PSP, 0x20001000)  returns 0x00 (0000ms, 1339ms total)
T2558 004:312 JLINK_WriteReg(CFBP, 0x00000000)  returns 0x00 (0000ms, 1339ms total)
T2558 004:312 JLINK_SetBPEx(Addr = 0x20000000, Type = 0xFFFFFFF2)  returns 0x0000000C (0000ms, 1339ms total)
T2558 004:312 JLINK_Go() >0x310 JTAG> >0x218 JTAG> >0x218 JTAG> >0x218 JTAG> >0x218 JTAG> >0x218 JTAG> >0x218 JTAG> >0x240 JTAG> >0x240 JTAG> (0006ms, 1345ms total)
T2558 004:318 JLINK_IsHalted() >0x198 JTAG> >0x17A8 JTAG> >0x1F0 JTAG>  returns TRUE (0005ms, 1350ms total)
T2558 004:323 JLINK_ReadReg(R15 (PC))  returns 0x20000000 (0000ms, 1345ms total)
T2558 004:323 JLINK_ClrBPEx(BPHandle = 0x0000000C)  returns 0x00 (0000ms, 1345ms total)
T2558 004:323 JLINK_ReadReg(R0)  returns 0x00000001 (0000ms, 1345ms total)
T2558 004:323 JLINK_WriteReg(R0, 0x08020000)  returns 0x00 (0000ms, 1345ms total)
T2558 004:323 JLINK_WriteReg(R1, 0x00020000)  returns 0x00 (0000ms, 1345ms total)
T2558 004:323 JLINK_WriteReg(R2, 0x000000FF)  returns 0x00 (0000ms, 1345ms total)
T2558 004:323 JLINK_WriteReg(R3, 0x00000000)  returns 0x00 (0000ms, 1345ms total)
T2558 004:323 JLINK_WriteReg(R4, 0x00000000)  returns 0x00 (0000ms, 1345ms total)
T2558 004:323 JLINK_WriteReg(R5, 0x00000000)  returns 0x00 (0000ms, 1345ms total)
T2558 004:323 JLINK_WriteReg(R6, 0x00000000)  returns 0x00 (0000ms, 1345ms total)
T2558 004:323 JLINK_WriteReg(R7, 0x00000000)  returns 0x00 (0000ms, 1345ms total)
T2558 004:323 JLINK_WriteReg(R8, 0x00000000)  returns 0x00 (0000ms, 1345ms total)
T2558 004:323 JLINK_WriteReg(R9, 0x2000017C)  returns 0x00 (0000ms, 1345ms total)
T2558 004:323 JLINK_WriteReg(R10, 0x00000000)  returns 0x00 (0000ms, 1345ms total)
T2558 004:323 JLINK_WriteReg(R11, 0x00000000)  returns 0x00 (0000ms, 1345ms total)
T2558 004:323 JLINK_WriteReg(R12, 0x00000000)  returns 0x00 (0000ms, 1345ms total)
T2558 004:324 JLINK_WriteReg(R13 (SP), 0x20001000)  returns 0x00 (0000ms, 1346ms total)
T2558 004:324 JLINK_WriteReg(R14, 0x20000001)  returns 0x00 (0000ms, 1346ms total)
T2558 004:324 JLINK_WriteReg(R15 (PC), 0x200000BC)  returns 0x00 (0000ms, 1346ms total)
T2558 004:324 JLINK_WriteReg(XPSR, 0x01000000)  returns 0x00 (0000ms, 1346ms total)
T2558 004:324 JLINK_WriteReg(MSP, 0x20001000)  returns 0x00 (0000ms, 1346ms total)
T2558 004:324 JLINK_WriteReg(PSP, 0x20001000)  returns 0x00 (0000ms, 1346ms total)
T2558 004:324 JLINK_WriteReg(CFBP, 0x00000000)  returns 0x00 (0000ms, 1346ms total)
T2558 004:324 JLINK_SetBPEx(Addr = 0x20000000, Type = 0xFFFFFFF2)  returns 0x0000000D (0000ms, 1346ms total)
T2558 004:324 JLINK_Go() >0x310 JTAG> >0x218 JTAG> >0x218 JTAG> >0x218 JTAG> >0x240 JTAG> >0x240 JTAG> (0005ms, 1351ms total)
T2558 004:329 JLINK_IsHalted() >0x198 JTAG>  returns FALSE (0000ms, 1351ms total)
T2558 004:436 JLINK_IsHalted() >0x198 JTAG>  returns FALSE (0000ms, 1351ms total)
T2558 004:528 JLINK_IsHalted() >0x198 JTAG>  returns FALSE (0000ms, 1351ms total)
T2558 004:530 JLINK_IsHalted() >0x198 JTAG>  returns FALSE (0000ms, 1351ms total)
T2558 004:532 JLINK_IsHalted() >0x198 JTAG>  returns FALSE (0000ms, 1351ms total)
T2558 004:624 JLINK_IsHalted() >0x198 JTAG>  returns FALSE (0000ms, 1351ms total)
T2558 004:627 JLINK_IsHalted() >0x198 JTAG>  returns FALSE (0001ms, 1352ms total)
T2558 004:630 JLINK_IsHalted() >0x198 JTAG>  returns FALSE (0000ms, 1351ms total)
T2558 004:633 JLINK_IsHalted() >0x198 JTAG>  returns FALSE (0000ms, 1351ms total)
T2558 004:635 JLINK_IsHalted() >0x198 JTAG>  returns FALSE (0000ms, 1351ms total)
T2558 004:637 JLINK_IsHalted() >0x198 JTAG>  returns FALSE (0000ms, 1351ms total)
T2558 004:639 JLINK_IsHalted() >0x198 JTAG>  returns FALSE (0000ms, 1351ms total)
T2558 004:641 JLINK_IsHalted() >0x198 JTAG>  returns FALSE (0001ms, 1352ms total)
T2558 004:745 JLINK_IsHalted() >0x198 JTAG>  returns FALSE (0000ms, 1351ms total)
T2558 004:747 JLINK_IsHalted() >0x198 JTAG>  returns FALSE (0000ms, 1351ms total)
T2558 004:749 JLINK_IsHalted() >0x198 JTAG>  returns FALSE (0000ms, 1351ms total)
T2558 004:751 JLINK_IsHalted() >0x198 JTAG>  returns FALSE (0000ms, 1351ms total)
T2558 004:870 JLINK_IsHalted() >0x198 JTAG>  returns FALSE (0000ms, 1351ms total)
T2558 004:969 JLINK_IsHalted() >0x198 JTAG>  returns FALSE (0000ms, 1351ms total)
T2558 004:971 JLINK_IsHalted() >0x198 JTAG>  returns FALSE (0000ms, 1351ms total)
T2558 005:072 JLINK_IsHalted() >0x198 JTAG>  returns FALSE (0000ms, 1351ms total)
T2558 005:074 JLINK_IsHalted() >0x198 JTAG>  returns FALSE (0000ms, 1351ms total)
T2558 005:076 JLINK_IsHalted() >0x198 JTAG>  returns FALSE (0000ms, 1351ms total)
T2558 005:079 JLINK_IsHalted() >0x198 JTAG>  returns FALSE (0000ms, 1351ms total)
T2558 005:171 JLINK_IsHalted() >0x198 JTAG>  returns FALSE (0000ms, 1351ms total)
T2558 005:173 JLINK_IsHalted() >0x198 JTAG>  returns FALSE (0001ms, 1352ms total)
T2558 005:176 JLINK_IsHalted() >0x198 JTAG>  returns FALSE (0000ms, 1351ms total)
T2558 005:178 JLINK_IsHalted() >0x198 JTAG>  returns FALSE (0000ms, 1351ms total)
T2558 005:180 JLINK_IsHalted() >0x198 JTAG>  returns FALSE (0000ms, 1351ms total)
T2558 005:182 JLINK_IsHalted() >0x198 JTAG>  returns FALSE (0000ms, 1351ms total)
T2558 005:184 JLINK_IsHalted() >0x198 JTAG>  returns FALSE (0000ms, 1351ms total)
T2558 005:186 JLINK_IsHalted() >0x198 JTAG>  returns FALSE (0000ms, 1351ms total)
T2558 005:188 JLINK_IsHalted() >0x198 JTAG>  returns FALSE (0000ms, 1351ms total)
T2558 005:190 JLINK_IsHalted() >0x198 JTAG>  returns FALSE (0000ms, 1351ms total)
T2558 005:306 JLINK_IsHalted() >0x198 JTAG>  returns FALSE (0000ms, 1351ms total)
T2558 005:418 JLINK_IsHalted() >0x198 JTAG>  returns FALSE (0000ms, 1351ms total)
T2558 005:504 JLINK_IsHalted() >0x198 JTAG>  returns FALSE (0000ms, 1351ms total)
T2558 005:506 JLINK_IsHalted() >0x198 JTAG>  returns FALSE (0000ms, 1351ms total)
T2558 005:508 JLINK_IsHalted() >0x198 JTAG>  returns FALSE (0000ms, 1351ms total)
T2558 005:510 JLINK_IsHalted() >0x198 JTAG>  returns FALSE (0000ms, 1351ms total)
T2558 005:512 JLINK_IsHalted() >0x198 JTAG>  returns FALSE (0001ms, 1352ms total)
T2558 005:515 JLINK_IsHalted() >0x198 JTAG>  returns FALSE (0000ms, 1351ms total)
T2558 005:517 JLINK_IsHalted() >0x198 JTAG>  returns FALSE (0000ms, 1351ms total)
T2558 005:519 JLINK_IsHalted() >0x198 JTAG>  returns FALSE (0000ms, 1351ms total)
T2558 005:613 JLINK_IsHalted() >0x198 JTAG>  returns FALSE (0000ms, 1351ms total)
T2558 005:615 JLINK_IsHalted() >0x198 JTAG>  returns FALSE (0000ms, 1351ms total)
T2558 005:617 JLINK_IsHalted() >0x198 JTAG>  returns FALSE (0000ms, 1351ms total)
T2558 005:619 JLINK_IsHalted() >0x198 JTAG>  returns FALSE (0000ms, 1351ms total)
T2558 005:621 JLINK_IsHalted() >0x198 JTAG>  returns FALSE (0000ms, 1351ms total)
T2558 005:623 JLINK_IsHalted() >0x198 JTAG>  returns FALSE (0000ms, 1351ms total)
T2558 005:625 JLINK_IsHalted() >0x198 JTAG>  returns FALSE (0000ms, 1351ms total)
T2558 005:718 JLINK_IsHalted() >0x198 JTAG>  returns FALSE (0000ms, 1351ms total)
T2558 005:720 JLINK_IsHalted() >0x198 JTAG>  returns FALSE (0000ms, 1351ms total)
T2558 005:722 JLINK_IsHalted() >0x198 JTAG>  returns FALSE (0000ms, 1351ms total)
T2558 005:724 JLINK_IsHalted() >0x198 JTAG>  returns FALSE (0000ms, 1351ms total)
T2558 005:726 JLINK_IsHalted() >0x198 JTAG>  returns FALSE (0000ms, 1351ms total)
T2558 005:728 JLINK_IsHalted() >0x198 JTAG>  returns FALSE (0000ms, 1351ms total)
T2558 005:730 JLINK_IsHalted() >0x198 JTAG>  returns FALSE (0000ms, 1351ms total)
T2558 005:732 JLINK_IsHalted() >0x198 JTAG>  returns FALSE (0000ms, 1351ms total)
T2558 005:734 JLINK_IsHalted() >0x198 JTAG>  returns FALSE (0000ms, 1351ms total)
T2558 005:736 JLINK_IsHalted() >0x198 JTAG>  returns FALSE (0000ms, 1351ms total)
T2558 005:738 JLINK_IsHalted() >0x198 JTAG>  returns FALSE (0000ms, 1351ms total)
T2558 005:740 JLINK_IsHalted() >0x198 JTAG>  returns FALSE (0000ms, 1351ms total)
